Sample in Buffer,Sample in Window,TRIGGER,ANC_SYSTEM/Wanc[0]_24[23:0],ANC_SYSTEM/Wanc[1]_25[23:0],ANC_SYSTEM/Wanc[2]_26[23:0],ANC_SYSTEM/Wanc[3]_27[23:0],ANC_SYSTEM/Wanc[4]_28[23:0],ANC_SYSTEM/Wanc[5]_29[23:0],ANC_SYSTEM/Wanc[6]_30[23:0],ANC_SYSTEM/Wanc[7]_31[23:0],ANC_SYSTEM/Wanc[8]_32[23:0],ANC_SYSTEM/Wanc[9]_33[23:0],ANC_SYSTEM/Wanc[10]_34[23:0],ANC_SYSTEM/Wanc[11]_35[23:0],ANC_SYSTEM/Wanc[12]_36[23:0],ANC_SYSTEM/Wanc[13]_37[23:0],ANC_SYSTEM/Wanc[14]_38[23:0],ANC_SYSTEM/Wanc[15]_39[23:0],ANC_SYSTEM/Wanc[16]_40[23:0],ANC_SYSTEM/Wanc[17]_41[23:0],ANC_SYSTEM/Wanc[18]_42[23:0],ANC_SYSTEM/Wanc[19]_43[23:0],ANC_SYSTEM/Wanc[20]_44[23:0],ANC_SYSTEM/Wanc[21]_45[23:0],ANC_SYSTEM/Wanc[22]_46[23:0],ANC_SYSTEM/Wanc[23]_47[23:0],ANC_SYSTEM/Wanc[24]_48[23:0],ANC_SYSTEM/Wanc[25]_49[23:0],ANC_SYSTEM/Wanc[26]_50[23:0],ANC_SYSTEM/Wanc[27]_51[23:0],ANC_SYSTEM/Wanc[28]_52[23:0],ANC_SYSTEM/Wanc[29]_53[23:0],ANC_SYSTEM/Wanc[30]_54[23:0],ANC_SYSTEM/Wanc[31]_55[23:0]
Radix - UNSIGNED,UNSIGNED,UNSIGNED,SIGNED,SIGNED,SIGNED,SIGNED,SIGNED,SIGNED,SIGNED,SIGNED,SIGNED,SIGNED,SIGNED,SIGNED,SIGNED,SIGNED,SIGNED,SIGNED,SIGNED,SIGNED,SIGNED,SIGNED,SIGNED,SIGNED,SIGNED,SIGNED,SIGNED,SIGNED,SIGNED,SIGNED,SIGNED,SIGNED,SIGNED,SIGNED
0,0,0,703864,1079184,1465706,1859890,2259221,2663387,3070997,3480307,3890800,4297064,4691470,5065747,5411590,5718993,5981350,6192662,6350539,6452717,6500203,6492857,6433392,6326956,6166496,5943921,5660248,5320955,4955542,4592456,4229659,3863003,3489645,3122142
1,1,0,703864,1079184,1465706,1859890,2259221,2663387,3070997,3480307,3890800,4297064,4691470,5065747,5411590,5718993,5981350,6192662,6350539,6452717,6500203,6492857,6433392,6326956,6166496,5943921,5660248,5320955,4955542,4592456,4229659,3863003,3489645,3122142
2,2,0,703864,1079184,1465706,1859890,2259221,2663387,3070997,3480307,3890800,4297064,4691470,5065747,5411590,5718993,5981350,6192662,6350539,6452717,6500203,6492857,6433392,6326956,6166496,5943921,5660248,5320955,4955542,4592456,4229659,3863003,3489645,3122142
3,3,0,4128062,1079198,1465722,1859909,2259235,2663393,3071001,3480315,3890812,4297078,4691485,5065762,5411602,5719005,5981368,6192689,6350567,6452739,6500213,6492855,6433386,6326946,6166486,5943918,5660247,5320950,4955532,4592439,4229641,3862989,3489633,3122139
4,4,0,703873,1079198,1465722,1859909,2259235,2663393,3071001,3480315,3890812,4297078,4691485,5065762,5411602,5719005,5981368,6192689,6350567,6452739,6500213,6492855,6433386,6326946,6166486,5943918,5660247,5320950,4955532,4592439,4229641,3862989,3489633,3122139
5,5,0,703873,1079198,1465722,1859909,2259235,2663393,3071001,3480315,3890812,4297078,4691485,5065762,5411602,5719005,5981368,6192689,6350567,6452739,6500213,6492855,6433386,6326946,6166486,5943918,5660247,5320950,4955532,4592439,4229641,3862989,3489633,3122139
6,6,0,703873,1079198,1465722,1859909,2259235,2663393,3071001,3480315,3890812,4297078,4691485,5065762,5411602,5719005,5981368,6192689,6350567,6452739,6500213,6492855,6433386,6326946,6166486,5943918,5660247,5320950,4955532,4592439,4229641,3862989,3489633,3122139
7,7,0,703873,1079198,1465722,1859909,2259235,2663393,3071001,3480315,3890812,4297078,4691485,5065762,5411602,5719005,5981368,6192689,6350567,6452739,6500213,6492855,6433386,6326946,6166486,5943918,5660247,5320950,4955532,4592439,4229641,3862989,3489633,3122139
8,8,0,703873,1079198,1465722,1859909,2259235,2663393,3071001,3480315,3890812,4297078,4691485,5065762,5411602,5719005,5981368,6192689,6350567,6452739,6500213,6492855,6433386,6326946,6166486,5943918,5660247,5320950,4955532,4592439,4229641,3862989,3489633,3122139
9,9,0,703873,1079198,1465722,1859909,2259235,2663393,3071001,3480315,3890812,4297078,4691485,5065762,5411602,5719005,5981368,6192689,6350567,6452739,6500213,6492855,6433386,6326946,6166486,5943918,5660247,5320950,4955532,4592439,4229641,3862989,3489633,3122139
10,10,0,703873,1079198,1465722,1859909,2259235,2663393,3071001,3480315,3890812,4297078,4691485,5065762,5411602,5719005,5981368,6192689,6350567,6452739,6500213,6492855,6433386,6326946,6166486,5943918,5660247,5320950,4955532,4592439,4229641,3862989,3489633,3122139
11,11,0,703873,1079198,1465722,1859909,2259235,2663393,3071001,3480315,3890812,4297078,4691485,5065762,5411602,5719005,5981368,6192689,6350567,6452739,6500213,6492855,6433386,6326946,6166486,5943918,5660247,5320950,4955532,4592439,4229641,3862989,3489633,3122139
12,12,0,703874,1079207,1465736,1859925,2259254,2663408,3071007,3480319,3890820,4297090,4691499,5065777,5411617,5719018,5981380,6192708,6350594,6452768,6500236,6492865,6433384,6326940,6166476,5943907,5660244,5320949,4955527,4592429,4229624,3862971,3489619,3122127
13,13,0,703874,1079207,1465736,1859925,2259254,2663408,3071007,3480319,3890820,4297090,4691499,5065777,5411617,5719018,5981380,6192708,6350594,6452768,6500236,6492865,6433384,6326940,6166476,5943907,5660244,5320949,4955527,4592429,4229624,3862971,3489619,3122127
14,14,0,703874,1079207,1465736,1859925,2259254,2663408,3071007,3480319,3890820,4297090,4691499,5065777,5411617,5719018,5981380,6192708,6350594,6452768,6500236,6492865,6433384,6326940,6166476,5943907,5660244,5320949,4955527,4592429,4229624,3862971,3489619,3122127
15,15,0,703874,1079207,1465736,1859925,2259254,2663408,3071007,3480319,3890820,4297090,4691499,5065777,5411617,5719018,5981380,6192708,6350594,6452768,6500236,6492865,6433384,6326940,6166476,5943907,5660244,5320949,4955527,4592429,4229624,3862971,3489619,3122127
16,16,0,703874,1079207,1465736,1859925,2259254,2663408,3071007,3480319,3890820,4297090,4691499,5065777,5411617,5719018,5981380,6192708,6350594,6452768,6500236,6492865,6433384,6326940,6166476,5943907,5660244,5320949,4955527,4592429,4229624,3862971,3489619,3122127
17,17,0,703874,1079207,1465736,1859925,2259254,2663408,3071007,3480319,3890820,4297090,4691499,5065777,5411617,5719018,5981380,6192708,6350594,6452768,6500236,6492865,6433384,6326940,6166476,5943907,5660244,5320949,4955527,4592429,4229624,3862971,3489619,3122127
18,18,0,703874,1079207,1465736,1859925,2259254,2663408,3071007,3480319,3890820,4297090,4691499,5065777,5411617,5719018,5981380,6192708,6350594,6452768,6500236,6492865,6433384,6326940,6166476,5943907,5660244,5320949,4955527,4592429,4229624,3862971,3489619,3122127
19,19,0,703874,1079207,1465736,1859925,2259254,2663408,3071007,3480319,3890820,4297090,4691499,5065777,5411617,5719018,5981380,6192708,6350594,6452768,6500236,6492865,6433384,6326940,6166476,5943907,5660244,5320949,4955527,4592429,4229624,3862971,3489619,3122127
20,20,0,703877,1079208,1465745,1859940,2259271,2663428,3071022,3480325,3890824,4297098,4691512,5065791,5411633,5719034,5981393,6192720,6350614,6452796,6500266,6492889,6433395,6326938,6166469,5943896,5660233,5320946,4955526,4592424,4229614,3862953,3489600,3122112
21,21,0,703877,1079208,1465745,1859940,2259271,2663428,3071022,3480325,3890824,4297098,4691512,5065791,5411633,5719034,5981393,6192720,6350614,6452796,6500266,6492889,6433395,6326938,6166469,5943896,5660233,5320946,4955526,4592424,4229614,3862953,3489600,3122112
22,22,0,703877,1079208,1465745,1859940,2259271,2663428,3071022,3480325,3890824,4297098,4691512,5065791,5411633,5719034,5981393,6192720,6350614,6452796,6500266,6492889,6433395,6326938,6166469,5943896,5660233,5320946,4955526,4592424,4229614,3862953,3489600,3122112
23,23,0,703877,1079208,1465745,1859940,2259271,2663428,3071022,3480325,3890824,4297098,4691512,5065791,5411633,5719034,5981393,6192720,6350614,6452796,6500266,6492889,6433395,6326938,6166469,5943896,5660233,5320946,4955526,4592424,4229614,3862953,3489600,3122112
24,24,0,703877,1079208,1465745,1859940,2259271,2663428,3071022,3480325,3890824,4297098,4691512,5065791,5411633,5719034,5981393,6192720,6350614,6452796,6500266,6492889,6433395,6326938,6166469,5943896,5660233,5320946,4955526,4592424,4229614,3862953,3489600,3122112
25,25,0,703877,1079208,1465745,1859940,2259271,2663428,3071022,3480325,3890824,4297098,4691512,5065791,5411633,5719034,5981393,6192720,6350614,6452796,6500266,6492889,6433395,6326938,6166469,5943896,5660233,5320946,4955526,4592424,4229614,3862953,3489600,3122112
26,26,0,703877,1079208,1465745,1859940,2259271,2663428,3071022,3480325,3890824,4297098,4691512,5065791,5411633,5719034,5981393,6192720,6350614,6452796,6500266,6492889,6433395,6326938,6166469,5943896,5660233,5320946,4955526,4592424,4229614,3862953,3489600,3122112
27,27,0,703877,1079208,1465745,1859940,2259271,2663428,3071022,3480325,3890824,4297098,4691512,5065791,5411633,5719034,5981393,6192720,6350614,6452796,6500266,6492889,6433395,6326938,6166469,5943896,5660233,5320946,4955526,4592424,4229614,3862953,3489600,3122112
28,28,0,703877,1079208,1465745,1859940,2259271,2663428,3071022,3480325,3890824,4297098,4691512,5065791,5411633,5719034,5981393,6192720,6350614,6452796,6500266,6492889,6433395,6326938,6166469,5943896,5660233,5320946,4955526,4592424,4229614,3862953,3489600,3122112
29,29,0,703887,1079211,1465746,1859949,2259286,2663445,3071042,3480340,3890830,4297102,4691520,5065803,5411647,5719049,5981408,6192733,6350626,6452815,6500294,6492919,6433418,6326948,6166467,5943889,5660222,5320935,4955523,4592423,4229609,3862943,3489582,3122094
30,30,0,703887,1079211,1465746,1859949,2259286,2663445,3071042,3480340,3890830,4297102,4691520,5065803,5411647,5719049,5981408,6192733,6350626,6452815,6500294,6492919,6433418,6326948,6166467,5943889,5660222,5320935,4955523,4592423,4229609,3862943,3489582,3122094
31,31,0,703887,1079211,1465746,1859949,2259286,2663445,3071042,3480340,3890830,4297102,4691520,5065803,5411647,5719049,5981408,6192733,6350626,6452815,6500294,6492919,6433418,6326948,6166467,5943889,5660222,5320935,4955523,4592423,4229609,3862943,3489582,3122094
32,32,0,703887,1079211,1465746,1859949,2259286,2663445,3071042,3480340,3890830,4297102,4691520,5065803,5411647,5719049,5981408,6192733,6350626,6452815,6500294,6492919,6433418,6326948,6166467,5943889,5660222,5320935,4955523,4592423,4229609,3862943,3489582,3122094
33,33,0,703887,1079211,1465746,1859949,2259286,2663445,3071042,3480340,3890830,4297102,4691520,5065803,5411647,5719049,5981408,6192733,6350626,6452815,6500294,6492919,6433418,6326948,6166467,5943889,5660222,5320935,4955523,4592423,4229609,3862943,3489582,3122094
34,34,0,703887,1079211,1465746,1859949,2259286,2663445,3071042,3480340,3890830,4297102,4691520,5065803,5411647,5719049,5981408,6192733,6350626,6452815,6500294,6492919,6433418,6326948,6166467,5943889,5660222,5320935,4955523,4592423,4229609,3862943,3489582,3122094
35,35,0,703887,1079211,1465746,1859949,2259286,2663445,3071042,3480340,3890830,4297102,4691520,5065803,5411647,5719049,5981408,6192733,6350626,6452815,6500294,6492919,6433418,6326948,6166467,5943889,5660222,5320935,4955523,4592423,4229609,3862943,3489582,3122094
36,36,0,703887,1079211,1465746,1859949,2259286,2663445,3071042,3480340,3890830,4297102,4691520,5065803,5411647,5719049,5981408,6192733,6350626,6452815,6500294,6492919,6433418,6326948,6166467,5943889,5660222,5320935,4955523,4592423,4229609,3862943,3489582,3122094
37,37,0,703901,1079221,1465749,1859950,2259295,2663459,3071058,3480359,3890844,4297108,4691524,5065811,5411659,5719062,5981423,6192748,6350638,6452827,6500312,6492946,6433446,6326970,6166477,5943887,5660216,5320925,4955513,4592420,4229608,3862938,3489572,3122077
38,38,0,703901,1079221,1465749,1859950,2259295,2663459,3071058,3480359,3890844,4297108,4691524,5065811,5411659,5719062,5981423,6192748,6350638,6452827,6500312,6492946,6433446,6326970,6166477,5943887,5660216,5320925,4955513,4592420,4229608,3862938,3489572,3122077
39,39,0,703901,1079221,1465749,1859950,2259295,2663459,3071058,3480359,3890844,4297108,4691524,5065811,5411659,5719062,5981423,6192748,6350638,6452827,6500312,6492946,6433446,6326970,6166477,5943887,5660216,5320925,4955513,4592420,4229608,3862938,3489572,3122077
40,40,0,703901,1079221,1465749,1859950,2259295,2663459,3071058,3480359,3890844,4297108,4691524,5065811,5411659,5719062,5981423,6192748,6350638,6452827,6500312,6492946,6433446,6326970,6166477,5943887,5660216,5320925,4955513,4592420,4229608,3862938,3489572,3122077
41,41,0,703901,1079221,1465749,1859950,2259295,2663459,3071058,3480359,3890844,4297108,4691524,5065811,5411659,5719062,5981423,6192748,6350638,6452827,6500312,6492946,6433446,6326970,6166477,5943887,5660216,5320925,4955513,4592420,4229608,3862938,3489572,3122077
42,42,0,703901,1079221,1465749,1859950,2259295,2663459,3071058,3480359,3890844,4297108,4691524,5065811,5411659,5719062,5981423,6192748,6350638,6452827,6500312,6492946,6433446,6326970,6166477,5943887,5660216,5320925,4955513,4592420,4229608,3862938,3489572,3122077
43,43,0,703901,1079221,1465749,1859950,2259295,2663459,3071058,3480359,3890844,4297108,4691524,5065811,5411659,5719062,5981423,6192748,6350638,6452827,6500312,6492946,6433446,6326970,6166477,5943887,5660216,5320925,4955513,4592420,4229608,3862938,3489572,3122077
44,44,0,703901,1079221,1465749,1859950,2259295,2663459,3071058,3480359,3890844,4297108,4691524,5065811,5411659,5719062,5981423,6192748,6350638,6452827,6500312,6492946,6433446,6326970,6166477,5943887,5660216,5320925,4955513,4592420,4229608,3862938,3489572,3122077
45,45,0,703901,1079221,1465749,1859950,2259295,2663459,3071058,3480359,3890844,4297108,4691524,5065811,5411659,5719062,5981423,6192748,6350638,6452827,6500312,6492946,6433446,6326970,6166477,5943887,5660216,5320925,4955513,4592420,4229608,3862938,3489572,3122077
46,46,0,703918,1079236,1465759,1859953,2259296,2663468,3071072,3480375,3890863,4297123,4691530,5065815,5411667,5719074,5981437,6192763,6350653,6452840,6500324,6492965,6433473,6326999,6166500,5943897,5660214,5320919,4955503,4592409,4229605,3862937,3489567,3122067
47,47,0,703918,1079236,1465759,1859953,2259296,2663468,3071072,3480375,3890863,4297123,4691530,5065815,5411667,5719074,5981437,6192763,6350653,6452840,6500324,6492965,6433473,6326999,6166500,5943897,5660214,5320919,4955503,4592409,4229605,3862937,3489567,3122067
48,48,0,703918,1079236,1465759,1859953,2259296,2663468,3071072,3480375,3890863,4297123,4691530,5065815,5411667,5719074,5981437,6192763,6350653,6452840,6500324,6492965,6433473,6326999,6166500,5943897,5660214,5320919,4955503,4592409,4229605,3862937,3489567,3122067
49,49,0,703918,1079236,1465759,1859953,2259296,2663468,3071072,3480375,3890863,4297123,4691530,5065815,5411667,5719074,5981437,6192763,6350653,6452840,6500324,6492965,6433473,6326999,6166500,5943897,5660214,5320919,4955503,4592409,4229605,3862937,3489567,3122067
50,50,0,703918,1079236,1465759,1859953,2259296,2663468,3071072,3480375,3890863,4297123,4691530,5065815,5411667,5719074,5981437,6192763,6350653,6452840,6500324,6492965,6433473,6326999,6166500,5943897,5660214,5320919,4955503,4592409,4229605,3862937,3489567,3122067
51,51,0,703918,1079236,1465759,1859953,2259296,2663468,3071072,3480375,3890863,4297123,4691530,5065815,5411667,5719074,5981437,6192763,6350653,6452840,6500324,6492965,6433473,6326999,6166500,5943897,5660214,5320919,4955503,4592409,4229605,3862937,3489567,3122067
52,52,0,703918,1079236,1465759,1859953,2259296,2663468,3071072,3480375,3890863,4297123,4691530,5065815,5411667,5719074,5981437,6192763,6350653,6452840,6500324,6492965,6433473,6326999,6166500,5943897,5660214,5320919,4955503,4592409,4229605,3862937,3489567,3122067
53,53,0,703918,1079236,1465759,1859953,2259296,2663468,3071072,3480375,3890863,4297123,4691530,5065815,5411667,5719074,5981437,6192763,6350653,6452840,6500324,6492965,6433473,6326999,6166500,5943897,5660214,5320919,4955503,4592409,4229605,3862937,3489567,3122067
54,54,0,703935,1079253,1465774,1859963,2259299,2663469,3071081,3480389,3890879,4297142,4691545,5065821,5411671,5719082,5981449,6192777,6350668,6452855,6500336,6492977,6433492,6327026,6166529,5943920,5660224,5320917,4955497,4592399,4229594,3862934,3489566,3122062
55,55,0,703935,1079253,1465774,1859963,2259299,2663469,3071081,3480389,3890879,4297142,4691545,5065821,5411671,5719082,5981449,6192777,6350668,6452855,6500336,6492977,6433492,6327026,6166529,5943920,5660224,5320917,4955497,4592399,4229594,3862934,3489566,3122062
56,56,0,703935,1079253,1465774,1859963,2259299,2663469,3071081,3480389,3890879,4297142,4691545,5065821,5411671,5719082,5981449,6192777,6350668,6452855,6500336,6492977,6433492,6327026,6166529,5943920,5660224,5320917,4955497,4592399,4229594,3862934,3489566,3122062
57,57,0,703935,1079253,1465774,1859963,2259299,2663469,3071081,3480389,3890879,4297142,4691545,5065821,5411671,5719082,5981449,6192777,6350668,6452855,6500336,6492977,6433492,6327026,6166529,5943920,5660224,5320917,4955497,4592399,4229594,3862934,3489566,3122062
58,58,0,703935,1079253,1465774,1859963,2259299,2663469,3071081,3480389,3890879,4297142,4691545,5065821,5411671,5719082,5981449,6192777,6350668,6452855,6500336,6492977,6433492,6327026,6166529,5943920,5660224,5320917,4955497,4592399,4229594,3862934,3489566,3122062
59,59,0,703935,1079253,1465774,1859963,2259299,2663469,3071081,3480389,3890879,4297142,4691545,5065821,5411671,5719082,5981449,6192777,6350668,6452855,6500336,6492977,6433492,6327026,6166529,5943920,5660224,5320917,4955497,4592399,4229594,3862934,3489566,3122062
60,60,0,703935,1079253,1465774,1859963,2259299,2663469,3071081,3480389,3890879,4297142,4691545,5065821,5411671,5719082,5981449,6192777,6350668,6452855,6500336,6492977,6433492,6327026,6166529,5943920,5660224,5320917,4955497,4592399,4229594,3862934,3489566,3122062
61,61,0,703935,1079253,1465774,1859963,2259299,2663469,3071081,3480389,3890879,4297142,4691545,5065821,5411671,5719082,5981449,6192777,6350668,6452855,6500336,6492977,6433492,6327026,6166529,5943920,5660224,5320917,4955497,4592399,4229594,3862934,3489566,3122062
62,62,0,703935,1079253,1465774,1859963,2259299,2663469,3071081,3480389,3890879,4297142,4691545,5065821,5411671,5719082,5981449,6192777,6350668,6452855,6500336,6492977,6433492,6327026,6166529,5943920,5660224,5320917,4955497,4592399,4229594,3862934,3489566,3122062
63,63,0,703946,1079269,1465790,1859977,2259309,2663472,3071082,3480398,3890893,4297158,4691563,5065835,5411677,5719086,5981457,6192789,6350681,6452869,6500350,6492989,6433503,6327044,6166555,5943948,5660246,5320927,4955496,4592393,4229584,3862924,3489563,3122061
64,64,0,703946,1079269,1465790,1859977,2259309,2663472,3071082,3480398,3890893,4297158,4691563,5065835,5411677,5719086,5981457,6192789,6350681,6452869,6500350,6492989,6433503,6327044,6166555,5943948,5660246,5320927,4955496,4592393,4229584,3862924,3489563,3122061
65,65,0,703946,1079269,1465790,1859977,2259309,2663472,3071082,3480398,3890893,4297158,4691563,5065835,5411677,5719086,5981457,6192789,6350681,6452869,6500350,6492989,6433503,6327044,6166555,5943948,5660246,5320927,4955496,4592393,4229584,3862924,3489563,3122061
66,66,0,703946,1079269,1465790,1859977,2259309,2663472,3071082,3480398,3890893,4297158,4691563,5065835,5411677,5719086,5981457,6192789,6350681,6452869,6500350,6492989,6433503,6327044,6166555,5943948,5660246,5320927,4955496,4592393,4229584,3862924,3489563,3122061
67,67,0,703946,1079269,1465790,1859977,2259309,2663472,3071082,3480398,3890893,4297158,4691563,5065835,5411677,5719086,5981457,6192789,6350681,6452869,6500350,6492989,6433503,6327044,6166555,5943948,5660246,5320927,4955496,4592393,4229584,3862924,3489563,3122061
68,68,0,703946,1079269,1465790,1859977,2259309,2663472,3071082,3480398,3890893,4297158,4691563,5065835,5411677,5719086,5981457,6192789,6350681,6452869,6500350,6492989,6433503,6327044,6166555,5943948,5660246,5320927,4955496,4592393,4229584,3862924,3489563,3122061
69,69,0,703946,1079269,1465790,1859977,2259309,2663472,3071082,3480398,3890893,4297158,4691563,5065835,5411677,5719086,5981457,6192789,6350681,6452869,6500350,6492989,6433503,6327044,6166555,5943948,5660246,5320927,4955496,4592393,4229584,3862924,3489563,3122061
70,70,0,703946,1079269,1465790,1859977,2259309,2663472,3071082,3480398,3890893,4297158,4691563,5065835,5411677,5719086,5981457,6192789,6350681,6452869,6500350,6492989,6433503,6327044,6166555,5943948,5660246,5320927,4955496,4592393,4229584,3862924,3489563,3122061
